T144C 000:004.006   SEGGER J-Link V7.98c Log File
T144C 000:004.124   DLL Compiled: Aug  7 2024 15:37:06
T144C 000:004.127   Logging started @ 2025-07-25 07:41
T144C 000:004.131   Process: D:\Keil_v5\UV4\UV4.exe
T144C 000:004.136 - 4.134ms
T144C 000:004.143 JLINK_SetWarnOutHandler(...)
T144C 000:004.146 - 0.004ms
T144C 000:004.151 JLINK_OpenEx(...)
T144C 000:006.182   Firmware: J-Link V9 compiled May  7 2021 16:26:12
T144C 000:006.765   Firmware: J-Link V9 compiled May  7 2021 16:26:12
T144C 000:006.877   Decompressing FW timestamp took 95 us
T144C 000:012.454   Hardware: V9.70
T144C 000:012.464   S/N: 150710005
T144C 000:012.469   OEM: SEGGER
T144C 000:012.474   Feature(s): GDB, RDI, FlashBP, FlashDL, JFlash
T144C 000:012.998   Bootloader: (Could not read)
T144C 000:013.651   TELNET listener socket opened on port 19021
T144C 000:013.711   WEBSRV WEBSRV_Init(): Starting webserver thread(s)
T144C 000:013.804   WEBSRV Webserver running on local port 19080
T144C 000:013.864   Looking for J-Link GUI Server exe at: D:\Keil_v5\ARM\Segger\JLinkGUIServer.exe
T144C 000:013.907   Looking for J-Link GUI Server exe at: D:\J_link\JLink_V810b\JLinkGUIServer.exe
T144C 000:013.916   Forking J-Link GUI Server: D:\J_link\JLink_V810b\JLinkGUIServer.exe
T144C 000:120.617   J-Link GUI Server info: "J-Link GUI server V8.10b "
T144C 000:120.961 - 116.804ms returns "O.K."
T144C 000:120.989 JLINK_GetEmuCaps()
T144C 000:120.999 - 0.008ms returns 0xB9FF7BBF
T144C 000:121.004 JLINK_TIF_GetAvailable(...)
T144C 000:121.187 - 0.183ms
T144C 000:121.201 JLINK_SetErrorOutHandler(...)
T144C 000:121.205 - 0.004ms
T144C 000:121.222 JLINK_ExecCommand("ProjectFile = "D:\TI_Competition_project_in_2025\easy-pid-beginner-kit-master\examples\Keil\09_distance_pid\keil\JLinkSettings.ini"", ...). 
T144C 000:133.561 - 12.337ms returns 0x00
T144C 000:135.722 JLINK_ExecCommand("Device = MSPM0G3507", ...). 
T144C 000:138.231   Device "MSPM0G3507" selected.
T144C 000:138.465 - 2.730ms returns 0x00
T144C 000:138.476 JLINK_ExecCommand("DisableConnectionTimeout", ...). 
T144C 000:138.482   ERROR: Unknown command
T144C 000:138.488 - 0.007ms returns 0x01
T144C 000:138.493 JLINK_GetHardwareVersion()
T144C 000:138.499 - 0.004ms returns 97000
T144C 000:138.504 JLINK_GetDLLVersion()
T144C 000:138.508 - 0.003ms returns 79803
T144C 000:138.512 JLINK_GetOEMString(...)
T144C 000:138.517 JLINK_GetFirmwareString(...)
T144C 000:138.521 - 0.003ms
T144C 000:142.317 JLINK_GetDLLVersion()
T144C 000:142.327 - 0.009ms returns 79803
T144C 000:142.332 JLINK_GetCompileDateTime()
T144C 000:142.336 - 0.003ms
T144C 000:143.612 JLINK_GetFirmwareString(...)
T144C 000:143.623 - 0.011ms
T144C 000:144.824 JLINK_GetHardwareVersion()
T144C 000:144.834 - 0.009ms returns 97000
T144C 000:145.930 JLINK_GetSN()
T144C 000:145.939 - 0.009ms returns 150710005
T144C 000:147.396 JLINK_GetOEMString(...)
T144C 000:149.663 JLINK_TIF_Select(JLINKARM_TIF_SWD)
T144C 000:150.453 - 0.789ms returns 0x00
T144C 000:150.462 JLINK_HasError()
T144C 000:150.471 JLINK_SetSpeed(5000)
T144C 000:150.700 - 0.230ms
T144C 000:150.706 JLINK_GetId()
T144C 000:152.174   InitTarget() start
T144C 000:152.187    J-Link Script File: Executing InitTarget()
T144C 000:154.341   DAP initialized successfully.
T144C 000:155.851   Setting up LPM debug bits
T144C 000:157.778   InitTarget() end - Took 4.21ms
T144C 000:159.506   Found SW-DP with ID 0x6BA02477
T144C 000:163.031   DPIDR: 0x6BA02477
T144C 000:164.363   CoreSight SoC-400 or earlier
T144C 000:165.695   Scanning AP map to find all available APs
T144C 000:169.332   AP[5]: Stopped AP scan as end of AP map has been reached
T144C 000:170.820   AP[0]: AHB-AP (IDR: 0x84770001)
T144C 000:172.068   AP[1]: MEM-AP (IDR: 0x002E0001)
T144C 000:173.221   AP[2]: JTAG-AP (IDR: 0x002E0000)
T144C 000:174.536   AP[3]: MEM-AP (IDR: 0x002E0003)
T144C 000:175.708   AP[4]: MEM-AP (IDR: 0x002E0002)
T144C 000:176.826   Iterating through AP map to find AHB-AP to use
T144C 000:179.176   AP[0]: Core found
T144C 000:181.957   AP[0]: AHB-AP ROM base: 0xF0000000
T144C 000:183.986   CPUID register: 0x410CC601. Implementer code: 0x41 (ARM)
T144C 000:185.538   Found Cortex-M0 r0p1, Little endian.
T144C 000:186.031   -- Max. mem block: 0x00010C40
T144C 000:186.441   CPU_ReadMem(4 bytes @ 0xE000EDF0)
T144C 000:186.670   CPU_WriteMem(4 bytes @ 0xE000EDF0)
T144C 000:186.931   CPU_ReadMem(4 bytes @ 0xE0002000)
T144C 000:189.351   FPUnit: 4 code (BP) slots and 0 literal slots
T144C 000:189.365   CPU_ReadMem(4 bytes @ 0xE000EDFC)
T144C 000:189.633   CPU_WriteMem(4 bytes @ 0xE000EDFC)
T144C 000:189.988   CPU_ReadMem(4 bytes @ 0xE0001000)
T144C 000:190.532   CPU_WriteMem(4 bytes @ 0xE0001000)
T144C 000:192.305   CoreSight components:
T144C 000:193.926   ROMTbl[0] @ F0000000
T144C 000:193.940   CPU_ReadMem(64 bytes @ 0xF0000000)
T144C 000:194.549   CPU_ReadMem(32 bytes @ 0xE00FFFE0)
T144C 000:196.514   [0][0]: E00FF000 CID B105100D PID 000BB4C0 ROM Table
T144C 000:197.693   ROMTbl[1] @ E00FF000
T144C 000:197.706   CPU_ReadMem(64 bytes @ 0xE00FF000)
T144C 000:198.325   CPU_ReadMem(32 bytes @ 0xE000EFE0)
T144C 000:199.872   [1][0]: E000E000 CID B105E00D PID 000BB008 SCS
T144C 000:199.885   CPU_ReadMem(32 bytes @ 0xE0001FE0)
T144C 000:201.477   [1][1]: E0001000 CID B105E00D PID 000BB00A DWT
T144C 000:201.489   CPU_ReadMem(32 bytes @ 0xE0002FE0)
T144C 000:203.312   [1][2]: E0002000 CID B105E00D PID 000BB00B FPB
T144C 000:203.325   CPU_ReadMem(32 bytes @ 0x40402FE0)
T144C 000:204.876   [0][2]: 40402000 CID B105900D PID 001BB932 MTB-M0+
T144C 000:205.143 - 54.436ms returns 0x6BA02477
T144C 000:205.157 JLINK_GetDLLVersion()
T144C 000:205.161 - 0.003ms returns 79803
T144C 000:205.192 JLINK_CORE_GetFound()
T144C 000:205.196 - 0.004ms returns 0x60000FF
T144C 000:205.202 JLINK_GetDebugInfo(0x100 = JLINKARM_ROM_TABLE_ADDR_INDEX)
T144C 000:205.206   Value=0xF0000000
T144C 000:205.211 - 0.009ms returns 0
T144C 000:207.324 JLINK_GetDebugInfo(0x100 = JLINKARM_ROM_TABLE_ADDR_INDEX)
T144C 000:207.333   Value=0xF0000000
T144C 000:207.339 - 0.015ms returns 0
T144C 000:207.344 JLINK_GetDebugInfo(0x101 = JLINKARM_DEBUG_INFO_ETM_ADDR_INDEX)
T144C 000:207.348   Value=0x00000000
T144C 000:207.353 - 0.009ms returns 0
T144C 000:207.359 JLINK_ReadMemEx(0xE0041FF0, 0x10 Bytes, Flags = 0x02000004)
T144C 000:207.376   CPU_ReadMem(16 bytes @ 0xE0041FF0)
T144C 000:207.717   Data:  00 00 00 00 00 00 00 00 00 00 00 00 00 00 00 00
T144C 000:207.724 - 0.365ms returns 16 (0x10)
T144C 000:207.730 JLINK_GetDebugInfo(0x102 = JLINKARM_DEBUG_INFO_MTB_ADDR_INDEX)
T144C 000:207.733   Value=0x40402000
T144C 000:207.739 - 0.009ms returns 0
T144C 000:207.743 JLINK_CORE_GetFound()
T144C 000:207.747 - 0.003ms returns 0x60000FF
T144C 000:207.752 JLINK_GetDebugInfo(0x103 = JLINKARM_DEBUG_INFO_TPIU_ADDR_INDEX)
T144C 000:207.755   Value=0x00000000
T144C 000:207.760 - 0.009ms returns 0
T144C 000:207.765 JLINK_GetDebugInfo(0x104 = JLINKARM_DEBUG_INFO_ITM_ADDR_INDEX)
T144C 000:207.769   Value=0xE0000000
T144C 000:207.774 - 0.008ms returns 0
T144C 000:207.778 JLINK_GetDebugInfo(0x105 = JLINKARM_DEBUG_INFO_DWT_ADDR_INDEX)
T144C 000:207.786   Value=0xE0001000
T144C 000:207.791 - 0.012ms returns 0
T144C 000:207.795 JLINK_GetDebugInfo(0x106 = JLINKARM_DEBUG_INFO_FPB_ADDR_INDEX)
T144C 000:207.799   Value=0xE0002000
T144C 000:207.804 - 0.008ms returns 0
T144C 000:207.809 JLINK_GetDebugInfo(0x107 = JLINKARM_DEBUG_INFO_NVIC_ADDR_INDEX)
T144C 000:207.812   Value=0xE000E000
T144C 000:207.817 - 0.008ms returns 0
T144C 000:207.822 JLINK_GetDebugInfo(0x10C = JLINKARM_DEBUG_INFO_DBG_ADDR_INDEX)
T144C 000:207.825   Value=0xE000EDF0
T144C 000:207.830 - 0.008ms returns 0
T144C 000:207.835 JLINK_GetDebugInfo(0x01 = Unknown)
T144C 000:207.838   Value=0x00000000
T144C 000:207.843 - 0.008ms returns 0
T144C 000:207.848 JLINK_ReadMemU32(0xE000ED00, 0x1 Items)
T144C 000:207.854   CPU_ReadMem(4 bytes @ 0xE000ED00)
T144C 000:208.143   Data:  01 C6 0C 41
T144C 000:208.149   Debug reg: CPUID
T144C 000:208.154 - 0.306ms returns 1 (0x1)
T144C 000:208.160 JLINK_GetDebugInfo(0x10F = JLINKARM_DEBUG_INFO_HAS_CORTEX_M_SECURITY_EXT_INDEX)
T144C 000:208.197   Value=0x00000000
T144C 000:208.203 - 0.043ms returns 0
T144C 000:208.208 JLINK_HasError()
T144C 000:208.214 JLINK_SetResetType(JLINKARM_CM3_RESET_TYPE_NORMAL)
T144C 000:208.218 - 0.003ms returns JLINKARM_CM3_RESET_TYPE_NORMAL
T144C 000:208.222 JLINK_Reset()
T144C 000:209.731   ResetTarget() start
T144C 000:209.742    J-Link Script File: Executing ResetTarget()
T144C 000:209.751   CPU_ReadMem(4 bytes @ 0xE000EDF0)
T144C 000:210.102   CPU is running
T144C 000:210.114   CPU_WriteMem(4 bytes @ 0xE000EDF0)
T144C 000:210.385   CPU_ReadMem(4 bytes @ 0x400B0300)
T144C 000:210.605   CPU_ReadMem(4 bytes @ 0xE000EDFC)
T144C 000:210.799   CPU is running
T144C 000:210.806   CPU_WriteMem(4 bytes @ 0xE000EDFC)
T144C 000:211.084   CPU is running
T144C 000:211.090   CPU_WriteMem(4 bytes @ 0x400B0300)
T144C 000:211.334   CPU is running
T144C 000:211.341   CPU_WriteMem(4 bytes @ 0x400B0304)
T144C 000:211.584   CPU_ReadMem(4 bytes @ 0xE000EDF0)
T144C 000:213.547   DAP initialized successfully.
T144C 000:213.560   CPU is running
T144C 000:213.567   CPU_WriteMem(4 bytes @ 0xE000EDFC)
T144C 000:214.976   ResetTarget() end - Took 4.09ms
T144C 000:217.048   CPU_WriteMem(4 bytes @ 0xE0002000)
T144C 000:217.392   CPU_ReadMem(4 bytes @ 0xE000EDFC)
T144C 000:217.705   CPU_ReadMem(4 bytes @ 0xE0001000)
T144C 000:217.928   CPU_WriteMem(4 bytes @ 0xE0001000)
T144C 000:218.224 - 10.001ms
T144C 000:218.234 JLINK_Halt()
T144C 000:218.238 - 0.003ms returns 0x00
T144C 000:218.244 JLINK_ReadMemU32(0xE000EDF0, 0x1 Items)
T144C 000:218.251   CPU_ReadMem(4 bytes @ 0xE000EDF0)
T144C 000:218.579   Data:  03 00 03 00
T144C 000:218.585   Debug reg: DHCSR
T144C 000:218.591 - 0.347ms returns 1 (0x1)
T144C 000:218.596 JLINK_WriteU32_64(0xE000EDF0, 0xA05F0003)
T144C 000:218.600   Debug reg: DHCSR
T144C 000:218.859   CPU_WriteMem(4 bytes @ 0xE000EDF0)
T144C 000:219.112 - 0.515ms returns 0 (0x00000000)
T144C 000:219.118 JLINK_WriteU32_64(0xE000EDFC, 0x01000000)
T144C 000:219.122   Debug reg: DEMCR
T144C 000:219.129   CPU_WriteMem(4 bytes @ 0xE000EDFC)
T144C 000:219.385 - 0.266ms returns 0 (0x00000000)
T144C 000:223.824 JLINK_GetHWStatus(...)
T144C 000:223.983 - 0.162ms returns 0
T144C 000:227.540 JLINK_GetNumBPUnits(Type = 0xFFFFFF00)
T144C 000:227.549 - 0.009ms returns 0x04
T144C 000:227.554 JLINK_GetNumBPUnits(Type = 0xF0)
T144C 000:227.558 - 0.003ms returns 0x2000
T144C 000:227.562 JLINK_GetNumWPUnits()
T144C 000:227.565 - 0.003ms returns 2
T144C 000:231.098 JLINK_GetSpeed()
T144C 000:231.106 - 0.007ms returns 4000
T144C 000:233.356 JLINK_ReadMemU32(0xE000E004, 0x1 Items)
T144C 000:233.370   CPU_ReadMem(4 bytes @ 0xE000E004)
T144C 000:233.635   Data:  00 00 00 00
T144C 000:233.646 - 0.290ms returns 1 (0x1)
T144C 000:233.655 JLINK_Halt()
T144C 000:233.659 - 0.003ms returns 0x00
T144C 000:233.663 JLINK_IsHalted()
T144C 000:233.667 - 0.003ms returns TRUE
T144C 000:235.900 JLINK_WriteMem(0x20200000, 0x294 Bytes, ...)
T144C 000:235.907   Data:  00 BE 0A E0 0D 78 2D 06 68 40 08 24 40 00 00 D3 ...
T144C 000:236.192   CPU_WriteMem(660 bytes @ 0x20200000)
T144C 000:238.729 - 2.829ms returns 0x294
T144C 000:238.757 JLINK_HasError()
T144C 000:238.767 JLINK_WriteReg(R0, 0x00000000)
T144C 000:238.772 - 0.008ms returns 0
T144C 000:238.777 JLINK_WriteReg(R1, 0x01F78A40)
T144C 000:238.780 - 0.003ms returns 0
T144C 000:238.785 JLINK_WriteReg(R2, 0x00000001)
T144C 000:238.789 - 0.003ms returns 0
T144C 000:238.793 JLINK_WriteReg(R3, 0x00000000)
T144C 000:238.797 - 0.003ms returns 0
T144C 000:238.801 JLINK_WriteReg(R4, 0x00000000)
T144C 000:238.805 - 0.003ms returns 0
T144C 000:238.809 JLINK_WriteReg(R5, 0x00000000)
T144C 000:238.813 - 0.003ms returns 0
T144C 000:238.817 JLINK_WriteReg(R6, 0x00000000)
T144C 000:238.821 - 0.003ms returns 0
T144C 000:238.825 JLINK_WriteReg(R7, 0x00000000)
T144C 000:238.829 - 0.003ms returns 0
T144C 000:238.834 JLINK_WriteReg(R8, 0x00000000)
T144C 000:238.838 - 0.004ms returns 0
T144C 000:238.842 JLINK_WriteReg(R9, 0x20200290)
T144C 000:238.848 - 0.005ms returns 0
T144C 000:238.853 JLINK_WriteReg(R10, 0x00000000)
T144C 000:238.857 - 0.003ms returns 0
T144C 000:238.861 JLINK_WriteReg(R11, 0x00000000)
T144C 000:238.865 - 0.003ms returns 0
T144C 000:238.869 JLINK_WriteReg(R12, 0x00000000)
T144C 000:238.873 - 0.003ms returns 0
T144C 000:238.877 JLINK_WriteReg(R13 (SP), 0x20208000)
T144C 000:238.881 - 0.004ms returns 0
T144C 000:238.885 JLINK_WriteReg(R14, 0x20200001)
T144C 000:238.889 - 0.003ms returns 0
T144C 000:238.895 JLINK_WriteReg(R15 (PC), 0x20200038)
T144C 000:238.899 - 0.005ms returns 0
T144C 000:238.903 JLINK_WriteReg(XPSR, 0x01000000)
T144C 000:238.907 - 0.003ms returns 0
T144C 000:238.911 JLINK_WriteReg(MSP, 0x20208000)
T144C 000:238.915 - 0.003ms returns 0
T144C 000:238.919 JLINK_WriteReg(PSP, 0x20208000)
T144C 000:238.923 - 0.003ms returns 0
T144C 000:238.927 JLINK_WriteReg(CFBP, 0x00000000)
T144C 000:238.931 - 0.003ms returns 0
T144C 000:238.936 JLINK_SetBPEx(Addr = 0x20200000, Type = 0xFFFFFFF2)
T144C 000:238.944   CPU_ReadMem(2 bytes @ 0x20200000)
T144C 000:239.225 - 0.289ms returns 0x00000001
T144C 000:239.232 JLINK_Go()
T144C 000:239.238   CPU_WriteMem(2 bytes @ 0x20200000)
T144C 000:239.482   CPU_ReadMem(4 bytes @ 0xE0001000)
T144C 000:239.720   CPU_WriteMem(4 bytes @ 0xE0001000)
T144C 000:240.150   CPU_WriteMem(4 bytes @ 0xE0002008)
T144C 000:240.161   CPU_WriteMem(4 bytes @ 0xE000200C)
T144C 000:240.166   CPU_WriteMem(4 bytes @ 0xE0002010)
T144C 000:240.171   CPU_WriteMem(4 bytes @ 0xE0002014)
T144C 000:240.836   CPU_WriteMem(4 bytes @ 0xE0001004)
T144C 000:244.284   Memory map 'after startup completion point' is active
T144C 000:244.295 - 5.063ms
T144C 000:244.302 JLINK_IsHalted()
T144C 000:246.091   CPU_ReadMem(2 bytes @ 0x20200000)
T144C 000:246.335 - 2.032ms returns TRUE
T144C 000:246.341 JLINK_ReadReg(R15 (PC))
T144C 000:246.346 - 0.004ms returns 0x20200000
T144C 000:246.351 JLINK_ClrBPEx(BPHandle = 0x00000001)
T144C 000:246.355 - 0.004ms returns 0x00
T144C 000:246.360 JLINK_ReadReg(R0)
T144C 000:246.364 - 0.003ms returns 0x00000000
T144C 000:246.571 JLINK_HasError()
T144C 000:246.578 JLINK_WriteReg(R0, 0x00000000)
T144C 000:246.583 - 0.004ms returns 0
T144C 000:246.588 JLINK_WriteReg(R1, 0x00000400)
T144C 000:246.591 - 0.003ms returns 0
T144C 000:246.596 JLINK_WriteReg(R2, 0x000000FF)
T144C 000:246.599 - 0.003ms returns 0
T144C 000:246.604 JLINK_WriteReg(R3, 0x00000000)
T144C 000:246.607 - 0.003ms returns 0
T144C 000:246.612 JLINK_WriteReg(R4, 0x00000000)
T144C 000:246.615 - 0.003ms returns 0
T144C 000:246.619 JLINK_WriteReg(R5, 0x00000000)
T144C 000:246.623 - 0.003ms returns 0
T144C 000:246.627 JLINK_WriteReg(R6, 0x00000000)
T144C 000:246.631 - 0.003ms returns 0
T144C 000:246.635 JLINK_WriteReg(R7, 0x00000000)
T144C 000:246.639 - 0.003ms returns 0
T144C 000:246.644 JLINK_WriteReg(R8, 0x00000000)
T144C 000:246.647 - 0.003ms returns 0
T144C 000:246.652 JLINK_WriteReg(R9, 0x20200290)
T144C 000:246.655 - 0.003ms returns 0
T144C 000:246.660 JLINK_WriteReg(R10, 0x00000000)
T144C 000:246.663 - 0.003ms returns 0
T144C 000:246.668 JLINK_WriteReg(R11, 0x00000000)
T144C 000:246.671 - 0.003ms returns 0
T144C 000:246.676 JLINK_WriteReg(R12, 0x00000000)
T144C 000:246.679 - 0.003ms returns 0
T144C 000:246.684 JLINK_WriteReg(R13 (SP), 0x20208000)
T144C 000:246.688 - 0.004ms returns 0
T144C 000:246.692 JLINK_WriteReg(R14, 0x20200001)
T144C 000:246.696 - 0.003ms returns 0
T144C 000:246.700 JLINK_WriteReg(R15 (PC), 0x20200020)
T144C 000:246.704 - 0.003ms returns 0
T144C 000:246.708 JLINK_WriteReg(XPSR, 0x01000000)
T144C 000:246.712 - 0.003ms returns 0
T144C 000:246.716 JLINK_WriteReg(MSP, 0x20208000)
T144C 000:246.720 - 0.003ms returns 0
T144C 000:246.724 JLINK_WriteReg(PSP, 0x20208000)
T144C 000:246.728 - 0.003ms returns 0
T144C 000:246.732 JLINK_WriteReg(CFBP, 0x00000000)
T144C 000:246.736 - 0.003ms returns 0
T144C 000:246.741 JLINK_SetBPEx(Addr = 0x20200000, Type = 0xFFFFFFF2)
T144C 000:246.745 - 0.004ms returns 0x00000002
T144C 000:246.749 JLINK_Go()
T144C 000:246.761   CPU_ReadMem(4 bytes @ 0xE0001000)
T144C 000:248.931 - 2.181ms
T144C 000:248.953 JLINK_IsHalted()
T144C 000:250.894   CPU_ReadMem(2 bytes @ 0x20200000)
T144C 000:251.171 - 2.217ms returns TRUE
T144C 000:251.177 JLINK_ReadReg(R15 (PC))
T144C 000:251.182 - 0.004ms returns 0x20200000
T144C 000:251.186 JLINK_ClrBPEx(BPHandle = 0x00000002)
T144C 000:251.189 - 0.003ms returns 0x00
T144C 000:251.194 JLINK_ReadReg(R0)
T144C 000:251.197 - 0.003ms returns 0x00000001
T144C 000:251.202 JLINK_HasError()
T144C 000:251.206 JLINK_WriteReg(R0, 0x00000000)
T144C 000:251.210 - 0.003ms returns 0
T144C 000:251.214 JLINK_WriteReg(R1, 0x00000400)
T144C 000:251.218 - 0.003ms returns 0
T144C 000:251.222 JLINK_WriteReg(R2, 0x000000FF)
T144C 000:251.225 - 0.003ms returns 0
T144C 000:251.229 JLINK_WriteReg(R3, 0x00000000)
T144C 000:251.233 - 0.003ms returns 0
T144C 000:251.237 JLINK_WriteReg(R4, 0x00000000)
T144C 000:251.240 - 0.003ms returns 0
T144C 000:251.244 JLINK_WriteReg(R5, 0x00000000)
T144C 000:251.247 - 0.003ms returns 0
T144C 000:251.252 JLINK_WriteReg(R6, 0x00000000)
T144C 000:251.255 - 0.003ms returns 0
T144C 000:251.259 JLINK_WriteReg(R7, 0x00000000)
T144C 000:251.263 - 0.003ms returns 0
T144C 000:251.267 JLINK_WriteReg(R8, 0x00000000)
T144C 000:251.270 - 0.003ms returns 0
T144C 000:251.274 JLINK_WriteReg(R9, 0x20200290)
T144C 000:251.277 - 0.003ms returns 0
T144C 000:251.282 JLINK_WriteReg(R10, 0x00000000)
T144C 000:251.285 - 0.003ms returns 0
T144C 000:251.289 JLINK_WriteReg(R11, 0x00000000)
T144C 000:251.292 - 0.003ms returns 0
T144C 000:251.296 JLINK_WriteReg(R12, 0x00000000)
T144C 000:251.300 - 0.003ms returns 0
T144C 000:251.304 JLINK_WriteReg(R13 (SP), 0x20208000)
T144C 000:251.307 - 0.003ms returns 0
T144C 000:251.312 JLINK_WriteReg(R14, 0x20200001)
T144C 000:251.315 - 0.003ms returns 0
T144C 000:251.319 JLINK_WriteReg(R15 (PC), 0x20200098)
T144C 000:251.323 - 0.003ms returns 0
T144C 000:251.327 JLINK_WriteReg(XPSR, 0x01000000)
T144C 000:251.330 - 0.003ms returns 0
T144C 000:251.334 JLINK_WriteReg(MSP, 0x20208000)
T144C 000:251.338 - 0.003ms returns 0
T144C 000:251.342 JLINK_WriteReg(PSP, 0x20208000)
T144C 000:251.345 - 0.003ms returns 0
T144C 000:251.349 JLINK_WriteReg(CFBP, 0x00000000)
T144C 000:251.353 - 0.003ms returns 0
T144C 000:251.357 JLINK_SetBPEx(Addr = 0x20200000, Type = 0xFFFFFFF2)
T144C 000:251.361 - 0.003ms returns 0x00000003
T144C 000:251.365 JLINK_Go()
T144C 000:251.371   CPU_ReadMem(4 bytes @ 0xE0001000)
T144C 000:253.696 - 2.330ms
T144C 000:253.705 JLINK_IsHalted()
T144C 000:254.026 - 0.320ms returns FALSE
T144C 000:254.037 JLINK_HasError()
T144C 000:266.884 JLINK_IsHalted()
T144C 000:268.826   CPU_ReadMem(2 bytes @ 0x20200000)
T144C 000:269.112 - 2.227ms returns TRUE
T144C 000:269.119 JLINK_ReadReg(R15 (PC))
T144C 000:269.124 - 0.005ms returns 0x20200000
T144C 000:269.129 JLINK_ClrBPEx(BPHandle = 0x00000003)
T144C 000:269.133 - 0.004ms returns 0x00
T144C 000:269.138 JLINK_ReadReg(R0)
T144C 000:269.142 - 0.003ms returns 0x00000000
T144C 000:269.501 JLINK_HasError()
T144C 000:269.509 JLINK_WriteReg(R0, 0x00000400)
T144C 000:269.514 - 0.004ms returns 0
T144C 000:269.519 JLINK_WriteReg(R1, 0x00000400)
T144C 000:269.522 - 0.003ms returns 0
T144C 000:269.527 JLINK_WriteReg(R2, 0x000000FF)
T144C 000:269.531 - 0.003ms returns 0
T144C 000:269.535 JLINK_WriteReg(R3, 0x00000000)
T144C 000:269.539 - 0.003ms returns 0
T144C 000:269.543 JLINK_WriteReg(R4, 0x00000000)
T144C 000:269.547 - 0.003ms returns 0
T144C 000:269.551 JLINK_WriteReg(R5, 0x00000000)
T144C 000:269.555 - 0.003ms returns 0
T144C 000:269.559 JLINK_WriteReg(R6, 0x00000000)
T144C 000:269.563 - 0.003ms returns 0
T144C 000:269.567 JLINK_WriteReg(R7, 0x00000000)
T144C 000:269.571 - 0.003ms returns 0
T144C 000:269.575 JLINK_WriteReg(R8, 0x00000000)
T144C 000:269.579 - 0.003ms returns 0
T144C 000:269.583 JLINK_WriteReg(R9, 0x20200290)
T144C 000:269.587 - 0.003ms returns 0
T144C 000:269.591 JLINK_WriteReg(R10, 0x00000000)
T144C 000:269.595 - 0.003ms returns 0
T144C 000:269.603 JLINK_WriteReg(R11, 0x00000000)
T144C 000:269.606 - 0.003ms returns 0
T144C 000:269.611 JLINK_WriteReg(R12, 0x00000000)
T144C 000:269.614 - 0.003ms returns 0
T144C 000:269.619 JLINK_WriteReg(R13 (SP), 0x20208000)
T144C 000:269.623 - 0.004ms returns 0
T144C 000:269.627 JLINK_WriteReg(R14, 0x20200001)
T144C 000:269.631 - 0.003ms returns 0
T144C 000:269.635 JLINK_WriteReg(R15 (PC), 0x20200020)
T144C 000:269.639 - 0.003ms returns 0
T144C 000:269.643 JLINK_WriteReg(XPSR, 0x01000000)
T144C 000:269.647 - 0.003ms returns 0
T144C 000:269.651 JLINK_WriteReg(MSP, 0x20208000)
T144C 000:269.655 - 0.003ms returns 0
T144C 000:269.659 JLINK_WriteReg(PSP, 0x20208000)
T144C 000:269.663 - 0.003ms returns 0
T144C 000:269.667 JLINK_WriteReg(CFBP, 0x00000000)
T144C 000:269.671 - 0.003ms returns 0
T144C 000:269.676 JLINK_SetBPEx(Addr = 0x20200000, Type = 0xFFFFFFF2)
T144C 000:269.680 - 0.004ms returns 0x00000004
T144C 000:269.685 JLINK_Go()
T144C 000:269.694   CPU_ReadMem(4 bytes @ 0xE0001000)
T144C 000:272.045 - 2.359ms
T144C 000:272.055 JLINK_IsHalted()
T144C 000:273.842   CPU_ReadMem(2 bytes @ 0x20200000)
T144C 000:274.098 - 2.043ms returns TRUE
T144C 000:274.110 JLINK_ReadReg(R15 (PC))
T144C 000:274.115 - 0.005ms returns 0x20200000
T144C 000:274.120 JLINK_ClrBPEx(BPHandle = 0x00000004)
T144C 000:274.124 - 0.004ms returns 0x00
T144C 000:274.129 JLINK_ReadReg(R0)
T144C 000:274.133 - 0.003ms returns 0x00000001
T144C 000:274.138 JLINK_HasError()
T144C 000:274.143 JLINK_WriteReg(R0, 0x00000400)
T144C 000:274.147 - 0.004ms returns 0
T144C 000:274.151 JLINK_WriteReg(R1, 0x00000400)
T144C 000:274.155 - 0.003ms returns 0
T144C 000:274.159 JLINK_WriteReg(R2, 0x000000FF)
T144C 000:274.163 - 0.003ms returns 0
T144C 000:274.167 JLINK_WriteReg(R3, 0x00000000)
T144C 000:274.171 - 0.003ms returns 0
T144C 000:274.175 JLINK_WriteReg(R4, 0x00000000)
T144C 000:274.179 - 0.003ms returns 0
T144C 000:274.183 JLINK_WriteReg(R5, 0x00000000)
T144C 000:274.187 - 0.003ms returns 0
T144C 000:274.191 JLINK_WriteReg(R6, 0x00000000)
T144C 000:274.195 - 0.003ms returns 0
T144C 000:274.199 JLINK_WriteReg(R7, 0x00000000)
T144C 000:274.202 - 0.003ms returns 0
T144C 000:274.207 JLINK_WriteReg(R8, 0x00000000)
T144C 000:274.210 - 0.003ms returns 0
T144C 000:274.215 JLINK_WriteReg(R9, 0x20200290)
T144C 000:274.219 - 0.003ms returns 0
T144C 000:274.223 JLINK_WriteReg(R10, 0x00000000)
T144C 000:274.226 - 0.003ms returns 0
T144C 000:274.231 JLINK_WriteReg(R11, 0x00000000)
T144C 000:274.234 - 0.003ms returns 0
T144C 000:274.239 JLINK_WriteReg(R12, 0x00000000)
T144C 000:274.242 - 0.003ms returns 0
T144C 000:274.247 JLINK_WriteReg(R13 (SP), 0x20208000)
T144C 000:274.250 - 0.003ms returns 0
T144C 000:274.255 JLINK_WriteReg(R14, 0x20200001)
T144C 000:274.258 - 0.003ms returns 0
T144C 000:274.263 JLINK_WriteReg(R15 (PC), 0x20200098)
T144C 000:274.267 - 0.003ms returns 0
T144C 000:274.271 JLINK_WriteReg(XPSR, 0x01000000)
T144C 000:274.275 - 0.003ms returns 0
T144C 000:274.279 JLINK_WriteReg(MSP, 0x20208000)
T144C 000:274.283 - 0.003ms returns 0
T144C 000:274.287 JLINK_WriteReg(PSP, 0x20208000)
T144C 000:274.291 - 0.003ms returns 0
T144C 000:274.295 JLINK_WriteReg(CFBP, 0x00000000)
T144C 000:274.299 - 0.003ms returns 0
T144C 000:274.303 JLINK_SetBPEx(Addr = 0x20200000, Type = 0xFFFFFFF2)
T144C 000:274.307 - 0.004ms returns 0x00000005
T144C 000:274.312 JLINK_Go()
T144C 000:274.320   CPU_ReadMem(4 bytes @ 0xE0001000)
T144C 000:276.418 - 2.105ms
T144C 000:276.428 JLINK_IsHalted()
T144C 000:276.692 - 0.263ms returns FALSE
T144C 000:276.697 JLINK_HasError()
T144C 000:279.898 JLINK_IsHalted()
T144C 000:281.796   CPU_ReadMem(2 bytes @ 0x20200000)
T144C 000:282.104 - 2.209ms returns TRUE
T144C 000:282.114 JLINK_ReadReg(R15 (PC))
T144C 000:282.119 - 0.005ms returns 0x20200000
T144C 000:282.124 JLINK_ClrBPEx(BPHandle = 0x00000005)
T144C 000:282.128 - 0.004ms returns 0x00
T144C 000:282.132 JLINK_ReadReg(R0)
T144C 000:282.136 - 0.003ms returns 0x00000000
T144C 000:282.469 JLINK_HasError()
T144C 000:282.478 JLINK_WriteReg(R0, 0x00000800)
T144C 000:282.484 - 0.006ms returns 0
T144C 000:282.489 JLINK_WriteReg(R1, 0x00000400)
T144C 000:282.493 - 0.003ms returns 0
T144C 000:282.497 JLINK_WriteReg(R2, 0x000000FF)
T144C 000:282.501 - 0.003ms returns 0
T144C 000:282.505 JLINK_WriteReg(R3, 0x00000000)
T144C 000:282.509 - 0.003ms returns 0
T144C 000:282.513 JLINK_WriteReg(R4, 0x00000000)
T144C 000:282.517 - 0.003ms returns 0
T144C 000:282.521 JLINK_WriteReg(R5, 0x00000000)
T144C 000:282.525 - 0.003ms returns 0
T144C 000:282.529 JLINK_WriteReg(R6, 0x00000000)
T144C 000:282.533 - 0.003ms returns 0
T144C 000:282.537 JLINK_WriteReg(R7, 0x00000000)
T144C 000:282.541 - 0.003ms returns 0
T144C 000:282.545 JLINK_WriteReg(R8, 0x00000000)
T144C 000:282.549 - 0.003ms returns 0
T144C 000:282.553 JLINK_WriteReg(R9, 0x20200290)
T144C 000:282.557 - 0.003ms returns 0
T144C 000:282.561 JLINK_WriteReg(R10, 0x00000000)
T144C 000:282.565 - 0.003ms returns 0
T144C 000:282.569 JLINK_WriteReg(R11, 0x00000000)
T144C 000:282.573 - 0.003ms returns 0
T144C 000:282.577 JLINK_WriteReg(R12, 0x00000000)
T144C 000:282.581 - 0.003ms returns 0
T144C 000:282.585 JLINK_WriteReg(R13 (SP), 0x20208000)
T144C 000:282.589 - 0.004ms returns 0
T144C 000:282.593 JLINK_WriteReg(R14, 0x20200001)
T144C 000:282.597 - 0.003ms returns 0
T144C 000:282.601 JLINK_WriteReg(R15 (PC), 0x20200020)
T144C 000:282.605 - 0.003ms returns 0
T144C 000:282.610 JLINK_WriteReg(XPSR, 0x01000000)
T144C 000:282.613 - 0.003ms returns 0
T144C 000:282.617 JLINK_WriteReg(MSP, 0x20208000)
T144C 000:282.621 - 0.003ms returns 0
T144C 000:282.625 JLINK_WriteReg(PSP, 0x20208000)
T144C 000:282.629 - 0.003ms returns 0
T144C 000:282.633 JLINK_WriteReg(CFBP, 0x00000000)
T144C 000:282.637 - 0.003ms returns 0
T144C 000:282.642 JLINK_SetBPEx(Addr = 0x20200000, Type = 0xFFFFFFF2)
T144C 000:282.646 - 0.004ms returns 0x00000006
T144C 000:282.650 JLINK_Go()
T144C 000:282.660   CPU_ReadMem(4 bytes @ 0xE0001000)
T144C 000:284.854 - 2.202ms
T144C 000:284.859 JLINK_IsHalted()
T144C 000:286.609   CPU_ReadMem(2 bytes @ 0x20200000)
T144C 000:286.846 - 1.986ms returns TRUE
T144C 000:286.852 JLINK_ReadReg(R15 (PC))
T144C 000:286.857 - 0.004ms returns 0x20200000
T144C 000:286.861 JLINK_ClrBPEx(BPHandle = 0x00000006)
T144C 000:286.865 - 0.003ms returns 0x00
T144C 000:286.869 JLINK_ReadReg(R0)
T144C 000:286.872 - 0.003ms returns 0x00000001
T144C 000:286.877 JLINK_HasError()
T144C 000:286.881 JLINK_WriteReg(R0, 0x00000800)
T144C 000:286.885 - 0.003ms returns 0
T144C 000:286.890 JLINK_WriteReg(R1, 0x00000400)
T144C 000:286.893 - 0.003ms returns 0
T144C 000:286.897 JLINK_WriteReg(R2, 0x000000FF)
T144C 000:286.901 - 0.003ms returns 0
T144C 000:286.905 JLINK_WriteReg(R3, 0x00000000)
T144C 000:286.908 - 0.003ms returns 0
T144C 000:286.912 JLINK_WriteReg(R4, 0x00000000)
T144C 000:286.915 - 0.003ms returns 0
T144C 000:286.919 JLINK_WriteReg(R5, 0x00000000)
T144C 000:286.923 - 0.003ms returns 0
T144C 000:286.927 JLINK_WriteReg(R6, 0x00000000)
T144C 000:286.930 - 0.003ms returns 0
T144C 000:286.937 JLINK_WriteReg(R7, 0x00000000)
T144C 000:286.940 - 0.003ms returns 0
T144C 000:286.944 JLINK_WriteReg(R8, 0x00000000)
T144C 000:286.947 - 0.003ms returns 0
T144C 000:286.951 JLINK_WriteReg(R9, 0x20200290)
T144C 000:286.955 - 0.003ms returns 0
T144C 000:286.959 JLINK_WriteReg(R10, 0x00000000)
T144C 000:286.962 - 0.003ms returns 0
T144C 000:286.966 JLINK_WriteReg(R11, 0x00000000)
T144C 000:286.970 - 0.003ms returns 0
T144C 000:286.974 JLINK_WriteReg(R12, 0x00000000)
T144C 000:286.977 - 0.003ms returns 0
T144C 000:286.981 JLINK_WriteReg(R13 (SP), 0x20208000)
T144C 000:286.985 - 0.003ms returns 0
T144C 000:286.989 JLINK_WriteReg(R14, 0x20200001)
T144C 000:286.992 - 0.003ms returns 0
T144C 000:286.996 JLINK_WriteReg(R15 (PC), 0x20200098)
T144C 000:287.000 - 0.003ms returns 0
T144C 000:287.004 JLINK_WriteReg(XPSR, 0x01000000)
T144C 000:287.007 - 0.003ms returns 0
T144C 000:287.011 JLINK_WriteReg(MSP, 0x20208000)
T144C 000:287.015 - 0.003ms returns 0
T144C 000:287.020 JLINK_WriteReg(PSP, 0x20208000)
T144C 000:287.025 - 0.004ms returns 0
T144C 000:287.029 JLINK_WriteReg(CFBP, 0x00000000)
T144C 000:287.032 - 0.003ms returns 0
T144C 000:287.037 JLINK_SetBPEx(Addr = 0x20200000, Type = 0xFFFFFFF2)
T144C 000:287.041 - 0.004ms returns 0x00000007
T144C 000:287.045 JLINK_Go()
T144C 000:287.051   CPU_ReadMem(4 bytes @ 0xE0001000)
T144C 000:289.297 - 2.252ms
T144C 000:289.308 JLINK_IsHalted()
T144C 000:289.563 - 0.255ms returns FALSE
T144C 000:289.568 JLINK_HasError()
T144C 000:291.574 JLINK_IsHalted()
T144C 000:293.414   CPU_ReadMem(2 bytes @ 0x20200000)
T144C 000:293.680 - 2.106ms returns TRUE
T144C 000:293.686 JLINK_ReadReg(R15 (PC))
T144C 000:293.690 - 0.004ms returns 0x20200000
T144C 000:293.695 JLINK_ClrBPEx(BPHandle = 0x00000007)
T144C 000:293.698 - 0.003ms returns 0x00
T144C 000:293.703 JLINK_ReadReg(R0)
T144C 000:293.706 - 0.003ms returns 0x00000000
T144C 000:294.019 JLINK_HasError()
T144C 000:294.026 JLINK_WriteReg(R0, 0x00000C00)
T144C 000:294.030 - 0.004ms returns 0
T144C 000:294.035 JLINK_WriteReg(R1, 0x00000400)
T144C 000:294.038 - 0.003ms returns 0
T144C 000:294.042 JLINK_WriteReg(R2, 0x000000FF)
T144C 000:294.046 - 0.003ms returns 0
T144C 000:294.050 JLINK_WriteReg(R3, 0x00000000)
T144C 000:294.053 - 0.003ms returns 0
T144C 000:294.057 JLINK_WriteReg(R4, 0x00000000)
T144C 000:294.061 - 0.003ms returns 0
T144C 000:294.065 JLINK_WriteReg(R5, 0x00000000)
T144C 000:294.068 - 0.003ms returns 0
T144C 000:294.072 JLINK_WriteReg(R6, 0x00000000)
T144C 000:294.076 - 0.003ms returns 0
T144C 000:294.080 JLINK_WriteReg(R7, 0x00000000)
T144C 000:294.083 - 0.003ms returns 0
T144C 000:294.087 JLINK_WriteReg(R8, 0x00000000)
T144C 000:294.090 - 0.003ms returns 0
T144C 000:294.095 JLINK_WriteReg(R9, 0x20200290)
T144C 000:294.098 - 0.003ms returns 0
T144C 000:294.102 JLINK_WriteReg(R10, 0x00000000)
T144C 000:294.105 - 0.003ms returns 0
T144C 000:294.109 JLINK_WriteReg(R11, 0x00000000)
T144C 000:294.113 - 0.003ms returns 0
T144C 000:294.117 JLINK_WriteReg(R12, 0x00000000)
T144C 000:294.120 - 0.003ms returns 0
T144C 000:294.124 JLINK_WriteReg(R13 (SP), 0x20208000)
T144C 000:294.128 - 0.003ms returns 0
T144C 000:294.132 JLINK_WriteReg(R14, 0x20200001)
T144C 000:294.135 - 0.003ms returns 0
T144C 000:294.139 JLINK_WriteReg(R15 (PC), 0x20200020)
T144C 000:294.143 - 0.003ms returns 0
T144C 000:294.147 JLINK_WriteReg(XPSR, 0x01000000)
T144C 000:294.150 - 0.003ms returns 0
T144C 000:294.154 JLINK_WriteReg(MSP, 0x20208000)
T144C 000:294.158 - 0.003ms returns 0
T144C 000:294.162 JLINK_WriteReg(PSP, 0x20208000)
T144C 000:294.165 - 0.003ms returns 0
T144C 000:294.169 JLINK_WriteReg(CFBP, 0x00000000)
T144C 000:294.172 - 0.003ms returns 0
T144C 000:294.177 JLINK_SetBPEx(Addr = 0x20200000, Type = 0xFFFFFFF2)
T144C 000:294.181 - 0.004ms returns 0x00000008
T144C 000:294.185 JLINK_Go()
T144C 000:294.193   CPU_ReadMem(4 bytes @ 0xE0001000)
T144C 000:296.314 - 2.129ms
T144C 000:296.322 JLINK_IsHalted()
T144C 000:298.224   CPU_ReadMem(2 bytes @ 0x20200000)
T144C 000:298.584 - 2.261ms returns TRUE
T144C 000:298.590 JLINK_ReadReg(R15 (PC))
T144C 000:298.594 - 0.004ms returns 0x20200000
T144C 000:298.599 JLINK_ClrBPEx(BPHandle = 0x00000008)
T144C 000:298.603 - 0.003ms returns 0x00
T144C 000:298.607 JLINK_ReadReg(R0)
T144C 000:298.610 - 0.003ms returns 0x00000001
T144C 000:298.615 JLINK_HasError()
T144C 000:298.619 JLINK_WriteReg(R0, 0x00000C00)
T144C 000:298.623 - 0.003ms returns 0
T144C 000:298.627 JLINK_WriteReg(R1, 0x00000400)
T144C 000:298.631 - 0.003ms returns 0
T144C 000:298.635 JLINK_WriteReg(R2, 0x000000FF)
T144C 000:298.638 - 0.003ms returns 0
T144C 000:298.642 JLINK_WriteReg(R3, 0x00000000)
T144C 000:298.646 - 0.003ms returns 0
T144C 000:298.650 JLINK_WriteReg(R4, 0x00000000)
T144C 000:298.653 - 0.003ms returns 0
T144C 000:298.657 JLINK_WriteReg(R5, 0x00000000)
T144C 000:298.660 - 0.003ms returns 0
T144C 000:298.665 JLINK_WriteReg(R6, 0x00000000)
T144C 000:298.668 - 0.003ms returns 0
T144C 000:298.672 JLINK_WriteReg(R7, 0x00000000)
T144C 000:298.707 - 0.034ms returns 0
T144C 000:298.711 JLINK_WriteReg(R8, 0x00000000)
T144C 000:298.714 - 0.003ms returns 0
T144C 000:298.718 JLINK_WriteReg(R9, 0x20200290)
T144C 000:298.722 - 0.003ms returns 0
T144C 000:298.726 JLINK_WriteReg(R10, 0x00000000)
T144C 000:298.729 - 0.003ms returns 0
T144C 000:298.733 JLINK_WriteReg(R11, 0x00000000)
T144C 000:298.737 - 0.003ms returns 0
T144C 000:298.741 JLINK_WriteReg(R12, 0x00000000)
T144C 000:298.744 - 0.003ms returns 0
T144C 000:298.748 JLINK_WriteReg(R13 (SP), 0x20208000)
T144C 000:298.752 - 0.003ms returns 0
T144C 000:298.756 JLINK_WriteReg(R14, 0x20200001)
T144C 000:298.759 - 0.003ms returns 0
T144C 000:298.763 JLINK_WriteReg(R15 (PC), 0x20200098)
T144C 000:298.767 - 0.003ms returns 0
T144C 000:298.771 JLINK_WriteReg(XPSR, 0x01000000)
T144C 000:298.774 - 0.003ms returns 0
T144C 000:298.779 JLINK_WriteReg(MSP, 0x20208000)
T144C 000:298.782 - 0.003ms returns 0
T144C 000:298.786 JLINK_WriteReg(PSP, 0x20208000)
T144C 000:298.789 - 0.003ms returns 0
T144C 000:298.794 JLINK_WriteReg(CFBP, 0x00000000)
T144C 000:298.797 - 0.003ms returns 0
T144C 000:298.801 JLINK_SetBPEx(Addr = 0x20200000, Type = 0xFFFFFFF2)
T144C 000:298.805 - 0.004ms returns 0x00000009
T144C 000:298.809 JLINK_Go()
T144C 000:298.816   CPU_ReadMem(4 bytes @ 0xE0001000)
T144C 000:301.069 - 2.257ms
T144C 000:301.083 JLINK_IsHalted()
T144C 000:301.335 - 0.251ms returns FALSE
T144C 000:301.340 JLINK_HasError()
T144C 000:302.641 JLINK_IsHalted()
T144C 000:302.931 - 0.291ms returns FALSE
T144C 000:302.936 JLINK_HasError()
T144C 000:304.977 JLINK_IsHalted()
T144C 000:306.834   CPU_ReadMem(2 bytes @ 0x20200000)
T144C 000:307.088 - 2.112ms returns TRUE
T144C 000:307.114 JLINK_ReadReg(R15 (PC))
T144C 000:307.119 - 0.005ms returns 0x20200000
T144C 000:307.124 JLINK_ClrBPEx(BPHandle = 0x00000009)
T144C 000:307.128 - 0.004ms returns 0x00
T144C 000:307.133 JLINK_ReadReg(R0)
T144C 000:307.137 - 0.003ms returns 0x00000000
T144C 000:307.466 JLINK_HasError()
T144C 000:307.474 JLINK_WriteReg(R0, 0x00001000)
T144C 000:307.479 - 0.005ms returns 0
T144C 000:307.484 JLINK_WriteReg(R1, 0x00000400)
T144C 000:307.487 - 0.004ms returns 0
T144C 000:307.492 JLINK_WriteReg(R2, 0x000000FF)
T144C 000:307.496 - 0.003ms returns 0
T144C 000:307.500 JLINK_WriteReg(R3, 0x00000000)
T144C 000:307.504 - 0.003ms returns 0
T144C 000:307.508 JLINK_WriteReg(R4, 0x00000000)
T144C 000:307.512 - 0.003ms returns 0
T144C 000:307.516 JLINK_WriteReg(R5, 0x00000000)
T144C 000:307.520 - 0.003ms returns 0
T144C 000:307.525 JLINK_WriteReg(R6, 0x00000000)
T144C 000:307.528 - 0.003ms returns 0
T144C 000:307.533 JLINK_WriteReg(R7, 0x00000000)
T144C 000:307.536 - 0.003ms returns 0
T144C 000:307.541 JLINK_WriteReg(R8, 0x00000000)
T144C 000:307.545 - 0.003ms returns 0
T144C 000:307.549 JLINK_WriteReg(R9, 0x20200290)
T144C 000:307.553 - 0.003ms returns 0
T144C 000:307.557 JLINK_WriteReg(R10, 0x00000000)
T144C 000:307.561 - 0.003ms returns 0
T144C 000:307.566 JLINK_WriteReg(R11, 0x00000000)
T144C 000:307.569 - 0.003ms returns 0
T144C 000:307.574 JLINK_WriteReg(R12, 0x00000000)
T144C 000:307.578 - 0.003ms returns 0
T144C 000:307.582 JLINK_WriteReg(R13 (SP), 0x20208000)
T144C 000:307.586 - 0.004ms returns 0
T144C 000:307.591 JLINK_WriteReg(R14, 0x20200001)
T144C 000:307.594 - 0.003ms returns 0
T144C 000:307.599 JLINK_WriteReg(R15 (PC), 0x20200020)
T144C 000:307.603 - 0.003ms returns 0
T144C 000:307.607 JLINK_WriteReg(XPSR, 0x01000000)
T144C 000:307.611 - 0.003ms returns 0
T144C 000:307.616 JLINK_WriteReg(MSP, 0x20208000)
T144C 000:307.621 - 0.005ms returns 0
T144C 000:307.626 JLINK_WriteReg(PSP, 0x20208000)
T144C 000:307.630 - 0.003ms returns 0
T144C 000:307.635 JLINK_WriteReg(CFBP, 0x00000000)
T144C 000:307.638 - 0.003ms returns 0
T144C 000:307.644 JLINK_SetBPEx(Addr = 0x20200000, Type = 0xFFFFFFF2)
T144C 000:307.648 - 0.004ms returns 0x0000000A
T144C 000:307.653 JLINK_Go()
T144C 000:307.663   CPU_ReadMem(4 bytes @ 0xE0001000)
T144C 000:309.829 - 2.175ms
T144C 000:309.842 JLINK_IsHalted()
T144C 000:311.776   CPU_ReadMem(2 bytes @ 0x20200000)
T144C 000:312.102 - 2.260ms returns TRUE
T144C 000:312.112 JLINK_ReadReg(R15 (PC))
T144C 000:312.119 - 0.006ms returns 0x20200000
T144C 000:312.125 JLINK_ClrBPEx(BPHandle = 0x0000000A)
T144C 000:312.130 - 0.005ms returns 0x00
T144C 000:312.137 JLINK_ReadReg(R0)
T144C 000:312.142 - 0.005ms returns 0x00000001
T144C 000:312.148 JLINK_HasError()
T144C 000:312.155 JLINK_WriteReg(R0, 0x00001000)
T144C 000:312.160 - 0.005ms returns 0
T144C 000:312.167 JLINK_WriteReg(R1, 0x00000400)
T144C 000:312.172 - 0.005ms returns 0
T144C 000:312.178 JLINK_WriteReg(R2, 0x000000FF)
T144C 000:312.183 - 0.005ms returns 0
T144C 000:312.189 JLINK_WriteReg(R3, 0x00000000)
T144C 000:312.193 - 0.004ms returns 0
T144C 000:312.199 JLINK_WriteReg(R4, 0x00000000)
T144C 000:312.204 - 0.005ms returns 0
T144C 000:312.211 JLINK_WriteReg(R5, 0x00000000)
T144C 000:312.215 - 0.004ms returns 0
T144C 000:312.221 JLINK_WriteReg(R6, 0x00000000)
T144C 000:312.226 - 0.005ms returns 0
T144C 000:312.232 JLINK_WriteReg(R7, 0x00000000)
T144C 000:312.237 - 0.004ms returns 0
T144C 000:312.243 JLINK_WriteReg(R8, 0x00000000)
T144C 000:312.248 - 0.005ms returns 0
T144C 000:312.254 JLINK_WriteReg(R9, 0x20200290)
T144C 000:312.259 - 0.005ms returns 0
T144C 000:312.265 JLINK_WriteReg(R10, 0x00000000)
T144C 000:312.270 - 0.005ms returns 0
T144C 000:312.276 JLINK_WriteReg(R11, 0x00000000)
T144C 000:312.281 - 0.004ms returns 0
T144C 000:312.287 JLINK_WriteReg(R12, 0x00000000)
T144C 000:312.292 - 0.004ms returns 0
T144C 000:312.298 JLINK_WriteReg(R13 (SP), 0x20208000)
T144C 000:312.303 - 0.005ms returns 0
T144C 000:312.309 JLINK_WriteReg(R14, 0x20200001)
T144C 000:312.314 - 0.005ms returns 0
T144C 000:312.320 JLINK_WriteReg(R15 (PC), 0x20200098)
T144C 000:312.325 - 0.005ms returns 0
T144C 000:312.331 JLINK_WriteReg(XPSR, 0x01000000)
T144C 000:312.336 - 0.005ms returns 0
T144C 000:312.342 JLINK_WriteReg(MSP, 0x20208000)
T144C 000:312.347 - 0.004ms returns 0
T144C 000:312.353 JLINK_WriteReg(PSP, 0x20208000)
T144C 000:312.358 - 0.004ms returns 0
T144C 000:312.364 JLINK_WriteReg(CFBP, 0x00000000)
T144C 000:312.369 - 0.004ms returns 0
T144C 000:312.375 JLINK_SetBPEx(Addr = 0x20200000, Type = 0xFFFFFFF2)
T144C 000:312.381 - 0.005ms returns 0x0000000B
T144C 000:312.387 JLINK_Go()
T144C 000:312.396   CPU_ReadMem(4 bytes @ 0xE0001000)
T144C 000:314.558 - 2.169ms
T144C 000:314.573 JLINK_IsHalted()
T144C 000:314.848 - 0.274ms returns FALSE
T144C 000:314.855 JLINK_HasError()
T144C 000:315.997 JLINK_IsHalted()
T144C 000:316.255 - 0.258ms returns FALSE
T144C 000:316.264 JLINK_HasError()
T144C 000:318.035 JLINK_IsHalted()
T144C 000:319.838   CPU_ReadMem(2 bytes @ 0x20200000)
T144C 000:320.086 - 2.050ms returns TRUE
T144C 000:320.093 JLINK_ReadReg(R15 (PC))
T144C 000:320.099 - 0.005ms returns 0x20200000
T144C 000:320.105 JLINK_ClrBPEx(BPHandle = 0x0000000B)
T144C 000:320.110 - 0.005ms returns 0x00
T144C 000:320.115 JLINK_ReadReg(R0)
T144C 000:320.120 - 0.004ms returns 0x00000000
T144C 000:320.542 JLINK_HasError()
T144C 000:320.552 JLINK_WriteReg(R0, 0x00001400)
T144C 000:320.558 - 0.005ms returns 0
T144C 000:320.564 JLINK_WriteReg(R1, 0x00000400)
T144C 000:320.568 - 0.004ms returns 0
T144C 000:320.574 JLINK_WriteReg(R2, 0x000000FF)
T144C 000:320.578 - 0.004ms returns 0
T144C 000:320.583 JLINK_WriteReg(R3, 0x00000000)
T144C 000:320.588 - 0.004ms returns 0
T144C 000:320.593 JLINK_WriteReg(R4, 0x00000000)
T144C 000:320.597 - 0.004ms returns 0
T144C 000:320.603 JLINK_WriteReg(R5, 0x00000000)
T144C 000:320.607 - 0.004ms returns 0
T144C 000:320.612 JLINK_WriteReg(R6, 0x00000000)
T144C 000:320.617 - 0.004ms returns 0
T144C 000:320.622 JLINK_WriteReg(R7, 0x00000000)
T144C 000:320.626 - 0.004ms returns 0
T144C 000:320.632 JLINK_WriteReg(R8, 0x00000000)
T144C 000:320.636 - 0.004ms returns 0
T144C 000:320.641 JLINK_WriteReg(R9, 0x20200290)
T144C 000:320.646 - 0.004ms returns 0
T144C 000:320.651 JLINK_WriteReg(R10, 0x00000000)
T144C 000:320.658 - 0.006ms returns 0
T144C 000:320.665 JLINK_WriteReg(R11, 0x00000000)
T144C 000:320.669 - 0.004ms returns 0
T144C 000:320.675 JLINK_WriteReg(R12, 0x00000000)
T144C 000:320.679 - 0.004ms returns 0
T144C 000:320.685 JLINK_WriteReg(R13 (SP), 0x20208000)
T144C 000:320.689 - 0.004ms returns 0
T144C 000:320.694 JLINK_WriteReg(R14, 0x20200001)
T144C 000:320.699 - 0.004ms returns 0
T144C 000:320.704 JLINK_WriteReg(R15 (PC), 0x20200020)
T144C 000:320.709 - 0.004ms returns 0
T144C 000:320.714 JLINK_WriteReg(XPSR, 0x01000000)
T144C 000:320.718 - 0.004ms returns 0
T144C 000:320.723 JLINK_WriteReg(MSP, 0x20208000)
T144C 000:320.728 - 0.004ms returns 0
T144C 000:320.733 JLINK_WriteReg(PSP, 0x20208000)
T144C 000:320.737 - 0.004ms returns 0
T144C 000:320.743 JLINK_WriteReg(CFBP, 0x00000000)
T144C 000:320.747 - 0.004ms returns 0
T144C 000:320.753 JLINK_SetBPEx(Addr = 0x20200000, Type = 0xFFFFFFF2)
T144C 000:320.758 - 0.005ms returns 0x0000000C
T144C 000:320.764 JLINK_Go()
T144C 000:320.774   CPU_ReadMem(4 bytes @ 0xE0001000)
T144C 000:323.002 - 2.238ms
T144C 000:323.010 JLINK_IsHalted()
T144C 000:324.989   CPU_ReadMem(2 bytes @ 0x20200000)
T144C 000:325.230 - 2.220ms returns TRUE
T144C 000:325.237 JLINK_ReadReg(R15 (PC))
T144C 000:325.242 - 0.004ms returns 0x20200000
T144C 000:325.246 JLINK_ClrBPEx(BPHandle = 0x0000000C)
T144C 000:325.250 - 0.004ms returns 0x00
T144C 000:325.255 JLINK_ReadReg(R0)
T144C 000:325.258 - 0.003ms returns 0x00000001
T144C 000:325.263 JLINK_HasError()
T144C 000:325.268 JLINK_WriteReg(R0, 0x00001400)
T144C 000:325.272 - 0.004ms returns 0
T144C 000:325.276 JLINK_WriteReg(R1, 0x00000400)
T144C 000:325.280 - 0.003ms returns 0
T144C 000:325.284 JLINK_WriteReg(R2, 0x000000FF)
T144C 000:325.287 - 0.003ms returns 0
T144C 000:325.292 JLINK_WriteReg(R3, 0x00000000)
T144C 000:325.295 - 0.003ms returns 0
T144C 000:325.299 JLINK_WriteReg(R4, 0x00000000)
T144C 000:325.303 - 0.003ms returns 0
T144C 000:325.307 JLINK_WriteReg(R5, 0x00000000)
T144C 000:325.311 - 0.003ms returns 0
T144C 000:325.315 JLINK_WriteReg(R6, 0x00000000)
T144C 000:325.318 - 0.003ms returns 0
T144C 000:325.323 JLINK_WriteReg(R7, 0x00000000)
T144C 000:325.326 - 0.003ms returns 0
T144C 000:325.330 JLINK_WriteReg(R8, 0x00000000)
T144C 000:325.334 - 0.003ms returns 0
T144C 000:325.338 JLINK_WriteReg(R9, 0x20200290)
T144C 000:325.342 - 0.003ms returns 0
T144C 000:325.346 JLINK_WriteReg(R10, 0x00000000)
T144C 000:325.349 - 0.003ms returns 0
T144C 000:325.354 JLINK_WriteReg(R11, 0x00000000)
T144C 000:325.357 - 0.003ms returns 0
T144C 000:325.361 JLINK_WriteReg(R12, 0x00000000)
T144C 000:325.365 - 0.003ms returns 0
T144C 000:325.369 JLINK_WriteReg(R13 (SP), 0x20208000)
T144C 000:325.373 - 0.003ms returns 0
T144C 000:325.377 JLINK_WriteReg(R14, 0x20200001)
T144C 000:325.381 - 0.003ms returns 0
T144C 000:325.385 JLINK_WriteReg(R15 (PC), 0x20200098)
T144C 000:325.389 - 0.003ms returns 0
T144C 000:325.393 JLINK_WriteReg(XPSR, 0x01000000)
T144C 000:325.397 - 0.003ms returns 0
T144C 000:325.401 JLINK_WriteReg(MSP, 0x20208000)
T144C 000:325.404 - 0.003ms returns 0
T144C 000:325.409 JLINK_WriteReg(PSP, 0x20208000)
T144C 000:325.412 - 0.003ms returns 0
T144C 000:325.416 JLINK_WriteReg(CFBP, 0x00000000)
T144C 000:325.420 - 0.003ms returns 0
T144C 000:325.425 JLINK_SetBPEx(Addr = 0x20200000, Type = 0xFFFFFFF2)
T144C 000:325.428 - 0.004ms returns 0x0000000D
T144C 000:325.433 JLINK_Go()
T144C 000:325.440   CPU_ReadMem(4 bytes @ 0xE0001000)
T144C 000:327.555 - 2.121ms
T144C 000:327.563 JLINK_IsHalted()
T144C 000:327.778 - 0.215ms returns FALSE
T144C 000:327.784 JLINK_HasError()
T144C 000:329.843 JLINK_IsHalted()
T144C 000:331.684   CPU_ReadMem(2 bytes @ 0x20200000)
T144C 000:331.983 - 2.141ms returns TRUE
T144C 000:331.989 JLINK_ReadReg(R15 (PC))
T144C 000:331.994 - 0.004ms returns 0x20200000
T144C 000:331.999 JLINK_ClrBPEx(BPHandle = 0x0000000D)
T144C 000:332.003 - 0.004ms returns 0x00
T144C 000:332.008 JLINK_ReadReg(R0)
T144C 000:332.011 - 0.003ms returns 0x00000000
T144C 000:332.528 JLINK_HasError()
T144C 000:332.542 JLINK_WriteReg(R0, 0x00001800)
T144C 000:332.548 - 0.005ms returns 0
T144C 000:332.553 JLINK_WriteReg(R1, 0x00000400)
T144C 000:332.557 - 0.004ms returns 0
T144C 000:332.562 JLINK_WriteReg(R2, 0x000000FF)
T144C 000:332.566 - 0.004ms returns 0
T144C 000:332.571 JLINK_WriteReg(R3, 0x00000000)
T144C 000:332.575 - 0.004ms returns 0
T144C 000:332.579 JLINK_WriteReg(R4, 0x00000000)
T144C 000:332.583 - 0.004ms returns 0
T144C 000:332.588 JLINK_WriteReg(R5, 0x00000000)
T144C 000:332.592 - 0.004ms returns 0
T144C 000:332.597 JLINK_WriteReg(R6, 0x00000000)
T144C 000:332.601 - 0.004ms returns 0
T144C 000:332.606 JLINK_WriteReg(R7, 0x00000000)
T144C 000:332.610 - 0.003ms returns 0
T144C 000:332.614 JLINK_WriteReg(R8, 0x00000000)
T144C 000:332.618 - 0.004ms returns 0
T144C 000:332.623 JLINK_WriteReg(R9, 0x20200290)
T144C 000:332.627 - 0.004ms returns 0
T144C 000:332.632 JLINK_WriteReg(R10, 0x00000000)
T144C 000:332.636 - 0.004ms returns 0
T144C 000:332.641 JLINK_WriteReg(R11, 0x00000000)
T144C 000:332.644 - 0.003ms returns 0
T144C 000:332.649 JLINK_WriteReg(R12, 0x00000000)
T144C 000:332.654 - 0.004ms returns 0
T144C 000:332.659 JLINK_WriteReg(R13 (SP), 0x20208000)
T144C 000:332.663 - 0.004ms returns 0
T144C 000:332.668 JLINK_WriteReg(R14, 0x20200001)
T144C 000:332.672 - 0.004ms returns 0
T144C 000:332.676 JLINK_WriteReg(R15 (PC), 0x20200020)
T144C 000:332.680 - 0.004ms returns 0
T144C 000:332.685 JLINK_WriteReg(XPSR, 0x01000000)
T144C 000:332.689 - 0.003ms returns 0
T144C 000:332.694 JLINK_WriteReg(MSP, 0x20208000)
T144C 000:332.698 - 0.003ms returns 0
T144C 000:332.702 JLINK_WriteReg(PSP, 0x20208000)
T144C 000:332.706 - 0.003ms returns 0
T144C 000:332.711 JLINK_WriteReg(CFBP, 0x00000000)
T144C 000:332.715 - 0.004ms returns 0
T144C 000:332.720 JLINK_SetBPEx(Addr = 0x20200000, Type = 0xFFFFFFF2)
T144C 000:332.725 - 0.004ms returns 0x0000000E
T144C 000:332.730 JLINK_Go()
T144C 000:332.739   CPU_ReadMem(4 bytes @ 0xE0001000)
T144C 000:335.172 - 2.441ms
T144C 000:335.182 JLINK_IsHalted()
T144C 000:337.124   CPU_ReadMem(2 bytes @ 0x20200000)
T144C 000:337.375 - 2.193ms returns TRUE
T144C 000:337.388 JLINK_ReadReg(R15 (PC))
T144C 000:337.394 - 0.006ms returns 0x20200000
T144C 000:337.400 JLINK_ClrBPEx(BPHandle = 0x0000000E)
T144C 000:337.405 - 0.005ms returns 0x00
T144C 000:337.411 JLINK_ReadReg(R0)
T144C 000:337.416 - 0.004ms returns 0x00000001
T144C 000:337.422 JLINK_HasError()
T144C 000:337.428 JLINK_WriteReg(R0, 0x00001800)
T144C 000:337.433 - 0.005ms returns 0
T144C 000:337.439 JLINK_WriteReg(R1, 0x00000400)
T144C 000:337.443 - 0.004ms returns 0
T144C 000:337.449 JLINK_WriteReg(R2, 0x000000FF)
T144C 000:337.453 - 0.004ms returns 0
T144C 000:337.459 JLINK_WriteReg(R3, 0x00000000)
T144C 000:337.463 - 0.004ms returns 0
T144C 000:337.469 JLINK_WriteReg(R4, 0x00000000)
T144C 000:337.473 - 0.004ms returns 0
T144C 000:337.479 JLINK_WriteReg(R5, 0x00000000)
T144C 000:337.483 - 0.004ms returns 0
T144C 000:337.489 JLINK_WriteReg(R6, 0x00000000)
T144C 000:337.493 - 0.004ms returns 0
T144C 000:337.498 JLINK_WriteReg(R7, 0x00000000)
T144C 000:337.503 - 0.004ms returns 0
T144C 000:337.509 JLINK_WriteReg(R8, 0x00000000)
T144C 000:337.513 - 0.004ms returns 0
T144C 000:337.518 JLINK_WriteReg(R9, 0x20200290)
T144C 000:337.523 - 0.004ms returns 0
T144C 000:337.529 JLINK_WriteReg(R10, 0x00000000)
T144C 000:337.533 - 0.004ms returns 0
T144C 000:337.538 JLINK_WriteReg(R11, 0x00000000)
T144C 000:337.543 - 0.004ms returns 0
T144C 000:337.548 JLINK_WriteReg(R12, 0x00000000)
T144C 000:337.553 - 0.004ms returns 0
T144C 000:337.558 JLINK_WriteReg(R13 (SP), 0x20208000)
T144C 000:337.563 - 0.004ms returns 0
T144C 000:337.569 JLINK_WriteReg(R14, 0x20200001)
T144C 000:337.573 - 0.004ms returns 0
T144C 000:337.581 JLINK_WriteReg(R15 (PC), 0x20200098)
T144C 000:337.585 - 0.003ms returns 0
T144C 000:337.590 JLINK_WriteReg(XPSR, 0x01000000)
T144C 000:337.593 - 0.003ms returns 0
T144C 000:337.598 JLINK_WriteReg(MSP, 0x20208000)
T144C 000:337.603 - 0.005ms returns 0
T144C 000:337.608 JLINK_WriteReg(PSP, 0x20208000)
T144C 000:337.612 - 0.003ms returns 0
T144C 000:337.617 JLINK_WriteReg(CFBP, 0x00000000)
T144C 000:337.620 - 0.003ms returns 0
T144C 000:337.625 JLINK_SetBPEx(Addr = 0x20200000, Type = 0xFFFFFFF2)
T144C 000:337.629 - 0.004ms returns 0x0000000F
T144C 000:337.634 JLINK_Go()
T144C 000:337.642   CPU_ReadMem(4 bytes @ 0xE0001000)
T144C 000:339.845 - 2.211ms
T144C 000:339.851 JLINK_IsHalted()
T144C 000:340.094 - 0.243ms returns FALSE
T144C 000:340.103 JLINK_HasError()
T144C 000:341.846 JLINK_IsHalted()
T144C 000:343.860   CPU_ReadMem(2 bytes @ 0x20200000)
T144C 000:344.143 - 2.300ms returns TRUE
T144C 000:344.152 JLINK_ReadReg(R15 (PC))
T144C 000:344.158 - 0.006ms returns 0x20200000
T144C 000:344.165 JLINK_ClrBPEx(BPHandle = 0x0000000F)
T144C 000:344.170 - 0.005ms returns 0x00
T144C 000:344.177 JLINK_ReadReg(R0)
T144C 000:344.183 - 0.005ms returns 0x00000000
T144C 000:344.629 JLINK_HasError()
T144C 000:344.639 JLINK_WriteReg(R0, 0x00001C00)
T144C 000:344.646 - 0.006ms returns 0
T144C 000:344.653 JLINK_WriteReg(R1, 0x00000400)
T144C 000:344.658 - 0.005ms returns 0
T144C 000:344.664 JLINK_WriteReg(R2, 0x000000FF)
T144C 000:344.669 - 0.005ms returns 0
T144C 000:344.676 JLINK_WriteReg(R3, 0x00000000)
T144C 000:344.681 - 0.005ms returns 0
T144C 000:344.687 JLINK_WriteReg(R4, 0x00000000)
T144C 000:344.692 - 0.005ms returns 0
T144C 000:344.698 JLINK_WriteReg(R5, 0x00000000)
T144C 000:344.703 - 0.005ms returns 0
T144C 000:344.709 JLINK_WriteReg(R6, 0x00000000)
T144C 000:344.714 - 0.005ms returns 0
T144C 000:344.721 JLINK_WriteReg(R7, 0x00000000)
T144C 000:344.726 - 0.005ms returns 0
T144C 000:344.732 JLINK_WriteReg(R8, 0x00000000)
T144C 000:344.737 - 0.005ms returns 0
T144C 000:344.743 JLINK_WriteReg(R9, 0x20200290)
T144C 000:344.748 - 0.005ms returns 0
